
**** 03/12/20 11:12:36 ******* PSpice Lite (March 2016) ******* ID# 10813 ****

 ** Profile: "SCHEMATIC1-Osc"  [ C:\Users\Tom\Documents\EE\EE352\Project\WrapperPart1\WrapperPart1-PSpiceFiles\SCHEMATIC1\Osc.sim ] 


 ****     CIRCUIT DESCRIPTION


******************************************************************************




** Creating circuit file "Osc.cir" 
** WARNING: THIS AUTOMATICALLY GENERATED FILE MAY BE OVERWRITTEN BY SUBSEQUENT SIMULATIONS

*Libraries: 
* Profile Libraries :
* Local Libraries :
* From [PSPICE NETLIST] section of C:\Users\Tom\cdssetup\OrCAD_PSpice\17.2.0\PSpice.ini file:
.lib "nomd.lib" 

*Analysis directives: 
.TRAN  0 1m 0 100n 
.OPTIONS ADVCONV
.PROBE64 V(alias(*)) I(alias(*)) W(alias(*)) D(alias(*)) NOISE(alias(*)) 
.INC "..\SCHEMATIC1.net" 



**** INCLUDING SCHEMATIC1.net ****
* source WRAPPERPART1
R_Osc_R3         Osc_N03025 N00025  330 TC=0,0 
R_Osc_R4         0 Osc_N02983  330 TC=0,0 
V_Osc_V1         Osc_N02991 0 15Vdc
C_Osc_C2         0 Osc_N02983  4.7n  TC=0,0 
R_Osc_R2         0 Osc_N02857  1k TC=0,0 
X_Osc_U1         Osc_N02983 Osc_N02857 Osc_N02991 Osc_N02877 N00025 OP-27
V_Osc_V2         0 Osc_N02877 15Vdc
C_Osc_C1         Osc_N02983 Osc_N03025  4.7n  TC=0,0 
R_Osc_R1         Osc_N02857 N00025  2.2k TC=0,0 

**** RESUMING Osc.cir ****
.END

**** 03/12/20 11:12:36 ******* PSpice Lite (March 2016) ******* ID# 10813 ****

 ** Profile: "SCHEMATIC1-Osc"  [ C:\Users\Tom\Documents\EE\EE352\Project\WrapperPart1\WrapperPart1-PSpiceFiles\SCHEMATIC1\Osc.sim ] 


 ****     Diode MODEL PARAMETERS


******************************************************************************




               X_Osc_U1.dx     X_Osc_U1.dy     
          IS  800.000000E-18  800.000000E-18 
          RS    1               1.000000E-03 
         CJO                   10.000000E-12 


**** 03/12/20 11:12:36 ******* PSpice Lite (March 2016) ******* ID# 10813 ****

 ** Profile: "SCHEMATIC1-Osc"  [ C:\Users\Tom\Documents\EE\EE352\Project\WrapperPart1\WrapperPart1-PSpiceFiles\SCHEMATIC1\Osc.sim ] 


 ****     BJT MODEL PARAMETERS


******************************************************************************




               X_Osc_U1.qx     
               NPN             
       LEVEL    1            
          IS  800.000000E-18 
          BF    4.200000E+03 
          NF    1            
          BR    1            
          NR    1            
         ISS    0            
          RE    0            
          RC    0            
         CJE    0            
         VJE     .75         
         CJC    0            
         VJC     .75         
         MJC     .33         
        XCJC    1            
         CJS    0            
         VJS     .75         
          KF    0            
          AF    1            
          CN    2.42         
           D     .87         


**** 03/12/20 11:12:36 ******* PSpice Lite (March 2016) ******* ID# 10813 ****

 ** Profile: "SCHEMATIC1-Osc"  [ C:\Users\Tom\Documents\EE\EE352\Project\WrapperPart1\WrapperPart1-PSpiceFiles\SCHEMATIC1\Osc.sim ] 


 ****     INITIAL TRANSIENT SOLUTION       TEMPERATURE =   27.000 DEG C


******************************************************************************



 NODE   VOLTAGE     NODE   VOLTAGE     NODE   VOLTAGE     NODE   VOLTAGE


(N00025) 12.42E-06 (Osc_N02857)-2.963E-06                (Osc_N02877)  -15.0000 

(Osc_N02983)-3.284E-06                (Osc_N02991)   15.0000                    

(Osc_N03025) 12.42E-06                (X_Osc_U1.6)-1.445E-09                    

(X_Osc_U1.7) 12.70E-06                (X_Osc_U1.8) 12.70E-06                    

(X_Osc_U1.9)    0.0000                (X_Osc_U1.10)    -.6403                   

(X_Osc_U1.11)   14.9720               (X_Osc_U1.12)   14.9720                   

(X_Osc_U1.13)    -.6384               (X_Osc_U1.14)    -.6384                   

(X_Osc_U1.53)   13.8000               (X_Osc_U1.54)  -13.8000                   

(X_Osc_U1.90) 6.990E-06               (X_Osc_U1.91)   40.0000                   

(X_Osc_U1.92)  -40.0000               (X_Osc_U1.99)    0.0000               




    VOLTAGE SOURCE CURRENTS
    NAME         CURRENT

    V_Osc_V1    -3.333E-03
    V_Osc_V2    -3.333E-03
    X_Osc_U1.vb  -1.445E-14
    X_Osc_U1.vc   1.380E-11
    X_Osc_U1.ve   1.569E-11
    X_Osc_U1.vlim   6.990E-09
    X_Osc_U1.vlp  -4.000E-11
    X_Osc_U1.vln  -4.000E-11

    TOTAL POWER DISSIPATION   1.00E-01  WATTS



          JOB CONCLUDED

**** 03/12/20 11:12:36 ******* PSpice Lite (March 2016) ******* ID# 10813 ****

 ** Profile: "SCHEMATIC1-Osc"  [ C:\Users\Tom\Documents\EE\EE352\Project\WrapperPart1\WrapperPart1-PSpiceFiles\SCHEMATIC1\Osc.sim ] 


 ****     JOB STATISTICS SUMMARY


******************************************************************************



  Total job time (using Solver 1)   =         .63
