
**** 03/10/20 15:26:32 ******* PSpice Lite (March 2016) ******* ID# 10813 ****

 ** Profile: "SCHEMATIC1-Oscillator"  [ c:\users\tom\documents\ee\ee352\project\oscillator-pspicefiles\schematic1\oscillator.sim ] 


 ****     CIRCUIT DESCRIPTION


******************************************************************************




** Creating circuit file "Oscillator.cir" 
** WARNING: THIS AUTOMATICALLY GENERATED FILE MAY BE OVERWRITTEN BY SUBSEQUENT SIMULATIONS

*Libraries: 
* Profile Libraries :
* Local Libraries :
* From [PSPICE NETLIST] section of C:\Users\Tom\cdssetup\OrCAD_PSpice\17.2.0\PSpice.ini file:
.lib "nomd.lib" 

*Analysis directives: 
.TRAN  0 .5m 0 100n 
.OPTIONS ADVCONV
.PROBE64 V(alias(*)) I(alias(*)) W(alias(*)) D(alias(*)) NOISE(alias(*)) 
.INC "..\SCHEMATIC1.net" 



**** INCLUDING SCHEMATIC1.net ****
* source OSCILLATOR
X_U1         N00193 N00238 N00398 N00414 N00213 OP-27
R_R1         N00238 N00213  2k TC=0,0 
R_R2         0 N00238  1k TC=0,0 
R_R3         N00209 N00213  227 TC=0,0 
C_C1         N00193 N00209  10n  TC=0,0 
C_C2         0 N00193  10n  TC=0,0 
R_R4         0 N00193  227 TC=0,0 
V_V1         N00398 0 12Vdc
V_V2         0 N00414 12Vdc

**** RESUMING Oscillator.cir ****
.END

**** 03/10/20 15:26:32 ******* PSpice Lite (March 2016) ******* ID# 10813 ****

 ** Profile: "SCHEMATIC1-Oscillator"  [ c:\users\tom\documents\ee\ee352\project\oscillator-pspicefiles\schematic1\oscillator.sim ] 


 ****     Diode MODEL PARAMETERS


******************************************************************************




               X_U1.dx         X_U1.dy         
          IS  800.000000E-18  800.000000E-18 
          RS    1               1.000000E-03 
         CJO                   10.000000E-12 


**** 03/10/20 15:26:32 ******* PSpice Lite (March 2016) ******* ID# 10813 ****

 ** Profile: "SCHEMATIC1-Oscillator"  [ c:\users\tom\documents\ee\ee352\project\oscillator-pspicefiles\schematic1\oscillator.sim ] 


 ****     BJT MODEL PARAMETERS


******************************************************************************




               X_U1.qx         
               NPN             
       LEVEL    1            
          IS  800.000000E-18 
          BF    4.200000E+03 
          NF    1            
          BR    1            
          NR    1            
         ISS    0            
          RE    0            
          RC    0            
         CJE    0            
         VJE     .75         
         CJC    0            
         VJC     .75         
         MJC     .33         
        XCJC    1            
         CJS    0            
         VJS     .75         
          KF    0            
          AF    1            
          CN    2.42         
           D     .87         


**** 03/10/20 15:26:32 ******* PSpice Lite (March 2016) ******* ID# 10813 ****

 ** Profile: "SCHEMATIC1-Oscillator"  [ c:\users\tom\documents\ee\ee352\project\oscillator-pspicefiles\schematic1\oscillator.sim ] 


 ****     INITIAL TRANSIENT SOLUTION       TEMPERATURE =   27.000 DEG C


******************************************************************************



 NODE   VOLTAGE     NODE   VOLTAGE     NODE   VOLTAGE     NODE   VOLTAGE


(N00193)-2.260E-06 (N00209) 14.10E-06 (N00213) 14.10E-06 (N00238)-1.938E-06     

(N00398)   12.0000 (N00414)  -12.0000 (X_U1.6)-1.591E-09 (X_U1.7) 14.42E-06     

(X_U1.8) 14.42E-06 (X_U1.9)    0.0000 (X_U1.10)    -.6403                       

(X_U1.11)   11.9720                   (X_U1.12)   11.9720                       

(X_U1.13)    -.6384                   (X_U1.14)    -.6384                       

(X_U1.53)   10.8000                   (X_U1.54)  -10.8000                       

(X_U1.90) 8.018E-06                   (X_U1.91)   40.0000                       

(X_U1.92)  -40.0000                   (X_U1.99)    0.0000                   




    VOLTAGE SOURCE CURRENTS
    NAME         CURRENT

    V_V1        -2.683E-03
    V_V2        -2.683E-03
    X_U1.vb     -1.591E-14
    X_U1.vc      1.080E-11
    X_U1.ve      1.228E-11
    X_U1.vlim    8.018E-09
    X_U1.vlp    -4.000E-11
    X_U1.vln    -4.000E-11

    TOTAL POWER DISSIPATION   6.44E-02  WATTS



          JOB CONCLUDED

**** 03/10/20 15:26:32 ******* PSpice Lite (March 2016) ******* ID# 10813 ****

 ** Profile: "SCHEMATIC1-Oscillator"  [ c:\users\tom\documents\ee\ee352\project\oscillator-pspicefiles\schematic1\oscillator.sim ] 


 ****     JOB STATISTICS SUMMARY


******************************************************************************



  Total job time (using Solver 1)   =         .28
