
**** 03/12/20 15:10:07 ******* PSpice Lite (March 2016) ******* ID# 10813 ****

 ** Profile: "SCHEMATIC1-Modulator"  [ C:\Users\Tom\Documents\EE\EE352\Project\WrapperPart1\wrapperpart1-pspicefiles\schematic1\modul


 ****     CIRCUIT DESCRIPTION


******************************************************************************




** Creating circuit file "Modulator.cir" 
** WARNING: THIS AUTOMATICALLY GENERATED FILE MAY BE OVERWRITTEN BY SUBSEQUENT SIMULATIONS

*Libraries: 
* Profile Libraries :
* Local Libraries :
* From [PSPICE NETLIST] section of C:\Users\Tom\cdssetup\OrCAD_PSpice\17.2.0\PSpice.ini file:
.lib "nomd.lib" 

*Analysis directives: 
.TRAN  0 5m 0 100n 
.OPTIONS ADVCONV
.PROBE64 V(alias(*)) I(alias(*)) W(alias(*)) D(alias(*)) NOISE(alias(*)) 
.INC "..\SCHEMATIC1.net" 



**** INCLUDING SCHEMATIC1.net ****
* source WRAPPERPART1
R_Osc_R3         Osc_N03025 N00025  330 TC=0,0 
R_Osc_R4         0 Osc_N02983  330 TC=0,0 
C_Osc_C2         0 Osc_N02983  4.7n  TC=0,0 
R_Osc_R2         0 Osc_N02857  1k TC=0,0 
X_Osc_U1         Osc_N02983 Osc_N02857 N01330 N01342 N00025 OP-27
C_Osc_C1         Osc_N02983 Osc_N03025  4.7n  TC=0,0 
R_Osc_R1         Osc_N02857 N00025  2.2k TC=0,0 
R_Modulator_R1         N01044 Modulator_N00912  10k TC=0,0 
R_Modulator_Rf         Modulator_N00912 Modulator_N00920  10k TC=0,0 
R_Modulator_R2         N00025 Modulator_N00912  20k TC=0,0 
X_Modulator_U1         0 Modulator_N00912 N01330 N01342 Modulator_N00920 OP-27
D_Modulator_D1         Modulator_N00920 N01069 D1N914 
V_V1         N01044 0  AC 0V
+SIN 0V 1V 2KHz 0 0 0
X_BPF_U1         0 BPF_N00213 N01330 N01342 N01561 OP-27
R_BPF_R1         BPF_N00213 N01561  1k TC=0,0 
R_BPF_R2         0 BPF_N00227  1k TC=0,0 
R_BPF_R3         BPF_N00227 N01044  1k TC=0,0 
C_BPF_C1         BPF_N00227 BPF_N00213  1n  TC=0,0 
C_BPF_C2         BPF_N00227 N01561  1n  TC=0,0 
V_V+         N01330 0 15Vdc
V_V-         0 N01342 15Vdc
R_R1         0 N01069  1k TC=0,0 

**** RESUMING Modulator.cir ****
.END

**** 03/12/20 15:10:07 ******* PSpice Lite (March 2016) ******* ID# 10813 ****

 ** Profile: "SCHEMATIC1-Modulator"  [ C:\Users\Tom\Documents\EE\EE352\Project\WrapperPart1\wrapperpart1-pspicefiles\schematic1\modul


 ****     Diode MODEL PARAMETERS


******************************************************************************




               D1N914          X_Osc_U1.dx     X_Osc_U1.dy     
          IS  168.100000E-21  800.000000E-18  800.000000E-18 
         ISR  100.000000E-12                                 
          BV  100                                            
         IBV  100.000000E-06                                 
          RS     .1             1               1.000000E-03 
          TT   11.540000E-09                                 
         CJO    4.000000E-12                   10.000000E-12 
          VJ     .75                                         
           M     .3333                                       


               X_Modulator_U1.dx 
          IS  800.000000E-18 
          RS    1            


               X_Modulator_U1.dy               X_BPF_U1.dx     X_BPF_U1.dy     
          IS  800.000000E-18                  800.000000E-18  800.000000E-18 
          RS    1.000000E-03                    1               1.000000E-03 
         CJO   10.000000E-12                                   10.000000E-12 


**** 03/12/20 15:10:07 ******* PSpice Lite (March 2016) ******* ID# 10813 ****

 ** Profile: "SCHEMATIC1-Modulator"  [ C:\Users\Tom\Documents\EE\EE352\Project\WrapperPart1\wrapperpart1-pspicefiles\schematic1\modul


 ****     BJT MODEL PARAMETERS


******************************************************************************




               X_Osc_U1.qx     X_Modulator_U1.qx               X_BPF_U1.qx     
               NPN             NPN                             NPN             
       LEVEL    1               1                               1            
          IS  800.000000E-18  800.000000E-18                  800.000000E-18 
          BF    4.200000E+03    4.200000E+03                    4.200000E+03 
          NF    1               1                               1            
          BR    1               1                               1            
          NR    1               1                               1            
         ISS    0               0                               0            
          RE    0               0                               0            
          RC    0               0                               0            
         CJE    0               0                               0            
         VJE     .75             .75                             .75         
         CJC    0               0                               0            
         VJC     .75             .75                             .75         
         MJC     .33             .33                             .33         
        XCJC    1               1                               1            
         CJS    0               0                               0            
         VJS     .75             .75                             .75         
          KF    0               0                               0            
          AF    1               1                               1            
          CN    2.42            2.42                            2.42         
           D     .87             .87                             .87         


**** 03/12/20 15:10:07 ******* PSpice Lite (March 2016) ******* ID# 10813 ****

 ** Profile: "SCHEMATIC1-Modulator"  [ C:\Users\Tom\Documents\EE\EE352\Project\WrapperPart1\wrapperpart1-pspicefiles\schematic1\modul


 ****     INITIAL TRANSIENT SOLUTION       TEMPERATURE =   27.000 DEG C


******************************************************************************



 NODE   VOLTAGE     NODE   VOLTAGE     NODE   VOLTAGE     NODE   VOLTAGE


(N00025) 12.42E-06 (N01044)    0.0000 (N01069) 182.3E-12 (N01330)   15.0000     

(N01342)  -15.0000 (N01561) 10.28E-06 (BPF_N00213) 321.9E-09                    

(BPF_N00227)    0.0000                (Osc_N02857)-2.963E-06                    

(Osc_N02983)-3.284E-06                (Osc_N03025) 12.42E-06                    

(X_BPF_U1.6)-1.284E-09                (X_BPF_U1.7) 10.67E-06                    

(X_BPF_U1.8) 10.67E-06                (X_BPF_U1.9)    0.0000                    

(X_Osc_U1.6)-1.368E-09                (X_Osc_U1.7) 12.72E-06                    

(X_Osc_U1.8) 12.72E-06                (X_Osc_U1.9)    0.0000                    

(X_BPF_U1.10)    -.6403               (X_BPF_U1.11)   14.9720                   

(X_BPF_U1.12)   14.9720               (X_BPF_U1.13)    -.6384                   

(X_BPF_U1.14)    -.6384               (X_BPF_U1.53)   13.8000                   

(X_BPF_U1.54)  -13.8000               (X_BPF_U1.90) 9.953E-06                   

(X_BPF_U1.91)   40.0000               (X_BPF_U1.92)  -40.0000                   

(X_BPF_U1.99)    0.0000               (X_Osc_U1.10)    -.6403                   

(X_Osc_U1.11)   14.9720               (X_Osc_U1.12)   14.9720                   

(X_Osc_U1.13)    -.6384               (X_Osc_U1.14)    -.6384                   

(X_Osc_U1.53)   13.8000               (X_Osc_U1.54)  -13.8000                   

(X_Osc_U1.90) 7.595E-06               (X_Osc_U1.91)   40.0000                   

(X_Osc_U1.92)  -40.0000               (X_Osc_U1.99)    0.0000                   

(Modulator_N00912) 321.9E-09          (Modulator_N00920) 94.13E-06              

(X_Modulator_U1.6)-8.307E-09          (X_Modulator_U1.7) 94.50E-06              

(X_Modulator_U1.8) 94.50E-06          (X_Modulator_U1.9)    0.0000              

(X_Modulator_U1.10)    -.6403         (X_Modulator_U1.11)   14.9720             

(X_Modulator_U1.12)   14.9720         (X_Modulator_U1.13)    -.6384             

(X_Modulator_U1.14)    -.6384         (X_Modulator_U1.53)   13.8000             

(X_Modulator_U1.54)  -13.8000         (X_Modulator_U1.90) 9.381E-06             

(X_Modulator_U1.91)   40.0000         (X_Modulator_U1.92)  -40.0000             

(X_Modulator_U1.99)    0.0000         




    VOLTAGE SOURCE CURRENTS
    NAME         CURRENT

    V_V1         3.219E-11
    V_V+        -9.999E-03
    V_V-        -1.000E-02
    X_Osc_U1.vb  -1.368E-14
    X_Osc_U1.vc   1.380E-11
    X_Osc_U1.ve   1.569E-11
    X_Osc_U1.vlim   7.595E-09
    X_Osc_U1.vlp  -4.000E-11
    X_Osc_U1.vln  -4.000E-11
    X_Modulator_U1.vb  -8.307E-14
    X_Modulator_U1.vc   1.380E-11
    X_Modulator_U1.ve   1.569E-11
    X_Modulator_U1.vlim   9.381E-09
    X_Modulator_U1.vlp  -4.000E-11
    X_Modulator_U1.vln  -4.000E-11
    X_BPF_U1.vb  -1.284E-14
    X_BPF_U1.vc   1.380E-11
    X_BPF_U1.ve   1.569E-11
    X_BPF_U1.vlim   9.953E-09
    X_BPF_U1.vlp  -4.000E-11
    X_BPF_U1.vln  -4.000E-11

    TOTAL POWER DISSIPATION   3.00E-01  WATTS



          JOB CONCLUDED

**** 03/12/20 15:10:07 ******* PSpice Lite (March 2016) ******* ID# 10813 ****

 ** Profile: "SCHEMATIC1-Modulator"  [ C:\Users\Tom\Documents\EE\EE352\Project\WrapperPart1\wrapperpart1-pspicefiles\schematic1\modul


 ****     JOB STATISTICS SUMMARY


******************************************************************************



  Total job time (using Solver 1)   =        3.16
